T0500 752:388 SEGGER J-Link V6.44a Log File (0001ms, 7248ms total)
T0500 752:388 DLL Compiled: Mar  8 2019 17:31:48 (0001ms, 7248ms total)
T0500 752:388 Logging started @ 2019-11-09 12:14 (0001ms, 7248ms total)
T0500 752:389 JLINK_SetWarnOutHandler(...) (0000ms, 7248ms total)
T0500 752:389 JLINK_OpenEx(...)
Firmware: J-Link V9 compiled May 17 2019 09:50:41
Hardware: V9.20
Feature(s): GDB, RDI, FlashBP, FlashDL, JFlash
TELNET listener socket opened on port 19021WEBSRV 
Starting webserver (0020ms, 7268ms total)
T0500 752:389 WEBSRV Webserver running on local port 19080 (0020ms, 7268ms total)
T0500 752:389   returns O.K. (0020ms, 7268ms total)
T0500 752:409 JLINK_GetEmuCaps()  returns 0xB9FF7BBF (0001ms, 7269ms total)
T0500 752:410 JLINK_TIF_GetAvailable(...) (0000ms, 7269ms total)
T0500 752:410 JLINK_SetErrorOutHandler(...) (0000ms, 7269ms total)
T0500 752:410 JLINK_ExecCommand("ProjectFile = "C:\Users\liuya\Work\HaiYing\SIMBOARD\SimulationBoard\MDK-ARM\JLinkSettings.ini"", ...).   returns 0x00 (0003ms, 7272ms total)
T0500 752:414 JLINK_ExecCommand("Device = STM32F405RGTx", ...). Device "STM32F405RG" selected.  returns 0x00 (0003ms, 7275ms total)
T0500 752:417 JLINK_ExecCommand("DisableConnectionTimeout", ...).   returns 0x01 (0000ms, 7275ms total)
T0500 752:417 JLINK_GetHardwareVersion()  returns 0x16760 (0000ms, 7275ms total)
T0500 752:417 JLINK_GetDLLVersion()  returns 64401 (0000ms, 7275ms total)
T0500 752:417 JLINK_GetFirmwareString(...) (0000ms, 7275ms total)
T0500 752:417 JLINK_GetDLLVersion()  returns 64401 (0000ms, 7275ms total)
T0500 752:417 JLINK_GetCompileDateTime() (0000ms, 7275ms total)
T0500 752:417 JLINK_GetFirmwareString(...) (0000ms, 7275ms total)
T0500 752:417 JLINK_GetHardwareVersion()  returns 0x16760 (0000ms, 7275ms total)
T0500 752:417 JLINK_TIF_Select(JLINKARM_TIF_SWD)  returns 0x00 (0001ms, 7276ms total)
T0500 752:418 JLINK_SetSpeed(5000) (0000ms, 7276ms total)
T0500 752:418 JLINK_GetId() >0x10B TIF>Found SW-DP with ID 0x2BA01477 >0x0D TIF> >0x28 TIF> >0x0D TIF> >0x28 TIF> >0x0D TIF> >0x28 TIF> >0x0D TIF> >0x28 TIF> >0x0D TIF> >0x21 TIF> >0x0D TIF> >0x28 TIF> >0x0D TIF> >0x28 TIF> >0x0D TIF> >0x28 TIF> >0x0D TIF> >0x21 TIF> >0x0D TIF> >0x21 TIF> >0x0D TIF> >0x28 TIF> >0x0D TIF> >0x21 TIF> >0x0D TIF> >0x21 TIF> >0x0D TIF> >0x28 TIF> >0x0D TIF> >0x21 TIF> >0x0D TIF> >0x21 TIF> >0x0D TIF> >0x28 TIF> >0x0D TIF> >0x21 TIF> >0x0D TIF> >0x21 TIF> >0x0D TIF> >0x28 TIF>
 >0x0D TIF> >0x21 TIF> >0x0D TIF> >0x21 TIF> >0x0D TIF> >0x28 TIF> >0x0D TIF> >0x21 TIF> >0x0D TIF> >0x21 TIF> >0x10B TIF>Found SW-DP with ID 0x2BA01477 >0x0D TIF> >0x28 TIF> >0x0D TIF> >0x28 TIF> >0x0D TIF> >0x28 TIF> >0x0D TIF> >0x28 TIF> >0x0D TIF> >0x21 TIF> >0x0D TIF> >0x28 TIF>Scanning AP map to find all available APs >0x0D TIF> >0x28 TIF> >0x0D TIF> >0x21 TIF> >0x0D TIF> >0x21 TIF> >0x0D TIF> >0x28 TIF> >0x0D TIF> >0x21 TIF> >0x0D TIF> >0x21 TIF>
AP[1]: Stopped AP scan as end of AP map has been reachedAP[0]: AHB-AP (IDR: 0x24770011)Iterating through AP map to find AHB-AP to use >0x42 TIF> >0x28 TIF> >0x0D TIF> >0x28 TIF> >0x0D TIF> >0x21 TIF> >0x0D TIF> >0x21 TIF> >0x42 TIF> >0x28 TIF> >0x0D TIF> >0x28 TIF> >0x0D TIF> >0x28 TIF> >0x0D TIF> >0x21 TIF> >0x0D TIF> >0x21 TIF>AP[0]: Core foundAP[0]: AHB-AP ROM base: 0xE00FF000 >0x0D TIF> >0x28 TIF> >0x0D TIF> >0x28 TIF> >0x0D TIF> >0x28 TIF> >0x0D TIF> >0x21 TIF> >0x0D TIF> >0x21 TIF>
CPUID register: 0x410FC241. Implementer code: 0x41 (ARM)Found Cortex-M4 r0p1, Little endian. -- Max. mem block: 0x00010F28 -- CPU_ReadMem(4 bytes @ 0xE000EDF0) -- CPU_WriteMem(4 bytes @ 0xE000EDF0) -- CPU_ReadMem(4 bytes @ 0xE0002000)FPUnit: 6 code (BP) slots and 2 literal slots -- CPU_ReadMem(4 bytes @ 0xE000EDFC) -- CPU_WriteMem(4 bytes @ 0xE000EDFC) -- CPU_ReadMem(4 bytes @ 0xE0001000) -- CPU_WriteMem(4 bytes @ 0xE0001000) -- CPU_ReadMem(4 bytes @ 0xE000ED88) -- CPU_WriteMem(4 bytes @ 0xE000ED88)
 -- CPU_ReadMem(4 bytes @ 0xE000ED88) -- CPU_WriteMem(4 bytes @ 0xE000ED88)CoreSight components:ROMTbl[0] @ E00FF000 -- CPU_ReadMem(16 bytes @ 0xE00FF000) -- CPU_ReadMem(16 bytes @ 0xE000EFF0) -- CPU_ReadMem(16 bytes @ 0xE000EFE0)ROMTbl[0][0]: E000E000, CID: B105E00D, PID: 000BB00C SCS-M7 -- CPU_ReadMem(16 bytes @ 0xE0001FF0) -- CPU_ReadMem(16 bytes @ 0xE0001FE0)ROMTbl[0][1]: E0001000, CID: B105E00D, PID: 003BB002 DWT -- CPU_ReadMem(16 bytes @ 0xE0002FF0) -- CPU_ReadMem(16 bytes @ 0xE0002FE0)
ROMTbl[0][2]: E0002000, CID: B105E00D, PID: 002BB003 FPB -- CPU_ReadMem(16 bytes @ 0xE0000FF0) -- CPU_ReadMem(16 bytes @ 0xE0000FE0)ROMTbl[0][3]: E0000000, CID: B105E00D, PID: 003BB001 ITM -- CPU_ReadMem(16 bytes @ 0xE00FF010) -- CPU_ReadMem(16 bytes @ 0xE0040FF0) -- CPU_ReadMem(16 bytes @ 0xE0040FE0)ROMTbl[0][4]: E0040000, CID: B105900D, PID: 000BB9A1 TPIU -- CPU_ReadMem(16 bytes @ 0xE0041FF0) -- CPU_ReadMem(16 bytes @ 0xE0041FE0)ROMTbl[0][5]: E0041000, CID: B105900D, PID: 000BB925 ETM >0x0D TIF>
 >0x21 TIF>  returns 0x2BA01477 (0155ms, 7431ms total)
T0500 752:574 JLINK_GetDLLVersion()  returns 64401 (0000ms, 7431ms total)
T0500 752:574 JLINK_CORE_GetFound()  returns 0xE0000FF (0000ms, 7431ms total)
T0500 752:574 JLINK_GetDebugInfo(0x100 = JLINKARM_ROM_TABLE_ADDR_INDEX) -- Value=0xE00FF000  returns 0x00 (0000ms, 7431ms total)
T0500 752:574 JLINK_GetDebugInfo(0x100 = JLINKARM_ROM_TABLE_ADDR_INDEX) -- Value=0xE00FF000  returns 0x00 (0000ms, 7431ms total)
T0500 752:574 JLINK_GetDebugInfo(0x101 = JLINKARM_DEBUG_INFO_ETM_ADDR_INDEX) -- Value=0xE0041000  returns 0x00 (0000ms, 7431ms total)
T0500 752:574 JLINK_ReadMemEx(0xE0041FD0, 0x0020 Bytes, ..., Flags = 0x02000004) -- CPU_ReadMem(32 bytes @ 0xE0041FD0) - Data: 04 00 00 00 00 00 00 00 00 00 00 00 00 00 00 00 ...  returns 0x20 (0001ms, 7432ms total)
T0500 752:575 JLINK_GetDebugInfo(0x102 = JLINKARM_DEBUG_INFO_MTB_ADDR_INDEX) -- Value=0x00000000  returns 0x00 (0000ms, 7432ms total)
T0500 752:575 JLINK_GetDebugInfo(0x103 = JLINKARM_DEBUG_INFO_TPIU_ADDR_INDEX) -- Value=0xE0040000  returns 0x00 (0000ms, 7432ms total)
T0500 752:575 JLINK_GetDebugInfo(0x104 = JLINKARM_DEBUG_INFO_ITM_ADDR_INDEX) -- Value=0xE0000000  returns 0x00 (0000ms, 7432ms total)
T0500 752:575 JLINK_GetDebugInfo(0x105 = JLINKARM_DEBUG_INFO_DWT_ADDR_INDEX) -- Value=0xE0001000  returns 0x00 (0000ms, 7432ms total)
T0500 752:575 JLINK_GetDebugInfo(0x106 = JLINKARM_DEBUG_INFO_FPB_ADDR_INDEX) -- Value=0xE0002000  returns 0x00 (0000ms, 7432ms total)
T0500 752:575 JLINK_GetDebugInfo(0x107 = JLINKARM_DEBUG_INFO_NVIC_ADDR_INDEX) -- Value=0xE000E000  returns 0x00 (0000ms, 7432ms total)
T0500 752:575 JLINK_GetDebugInfo(0x10C = JLINKARM_DEBUG_INFO_DBG_ADDR_INDEX) -- Value=0xE000EDF0  returns 0x00 (0000ms, 7432ms total)
T0500 752:575 JLINK_GetDebugInfo(0x01 = Unknown) -- Value=0x00000001  returns 0x00 (0000ms, 7432ms total)
T0500 752:575 JLINK_ReadMemU32(0xE000ED00, 0x0001 Items, ...) -- CPU_ReadMem(4 bytes @ 0xE000ED00) - Data: 41 C2 0F 41  returns 1 (0001ms, 7433ms total)
T0500 752:576 JLINK_GetDebugInfo(0x10F = JLINKARM_DEBUG_INFO_HAS_CORTEX_M_SECURITY_EXT_INDEX) -- Value=0x00000000  returns 0x00 (0000ms, 7433ms total)
T0500 752:576 JLINK_SetResetType(JLINKARM_CM3_RESET_TYPE_NORMAL)  returns JLINKARM_CM3_RESET_TYPE_NORMAL (0000ms, 7433ms total)
T0500 752:576 JLINK_Reset() -- CPU is running -- CPU_WriteMem(4 bytes @ 0xE000EDF0) -- CPU is running -- CPU_WriteMem(4 bytes @ 0xE000EDFC)Reset: Halt core after reset via DEMCR.VC_CORERESET. >0x35 TIF>Reset: Reset device via AIRCR.SYSRESETREQ. -- CPU is running -- CPU_WriteMem(4 bytes @ 0xE000ED0C) >0x0D TIF> >0x28 TIF> -- CPU_ReadMem(4 bytes @ 0xE000EDF0) -- CPU_ReadMem(4 bytes @ 0xE000EDF0) -- CPU is running -- CPU_WriteMem(4 bytes @ 0xE000EDF0) -- CPU is running -- CPU_WriteMem(4 bytes @ 0xE000EDFC)
 -- CPU_ReadMem(4 bytes @ 0xE000EDF0) -- CPU_WriteMem(4 bytes @ 0xE0002000) -- CPU_ReadMem(4 bytes @ 0xE000EDFC) -- CPU_ReadMem(4 bytes @ 0xE0001000) (0071ms, 7504ms total)
T0500 752:648 JLINK_ReadReg(R15 (PC))  returns 0x0800019C (0000ms, 7504ms total)
T0500 752:648 JLINK_ReadReg(XPSR)  returns 0x01000000 (0000ms, 7504ms total)
T0500 752:648 JLINK_Halt()  returns 0x00 (0000ms, 7504ms total)
T0500 752:648 JLINK_ReadMemU32(0xE000EDF0, 0x0001 Items, ...) -- CPU_ReadMem(4 bytes @ 0xE000EDF0) - Data: 03 00 03 00  returns 1 (0001ms, 7505ms total)
T0500 752:649 JLINK_WriteU32(0xE000EDF0, 0xA05F0003) -- CPU_WriteMem(4 bytes @ 0xE000EDF0)  returns 0 (0001ms, 7506ms total)
T0500 752:650 JLINK_WriteU32(0xE000EDFC, 0x01000000) -- CPU_WriteMem(4 bytes @ 0xE000EDFC)  returns 0 (0001ms, 7507ms total)
T0500 752:651 JLINK_GetHWStatus(...)  returns 0x00 (0000ms, 7507ms total)
T0500 752:652 JLINK_GetNumBPUnits(Type = 0xFFFFFF00)  returns 0x06 (0000ms, 7507ms total)
T0500 752:652 JLINK_GetNumBPUnits(Type = 0xF0)  returns 0x2000 (0000ms, 7507ms total)
T0500 752:652 JLINK_GetNumWPUnits()  returns 0x04 (0000ms, 7507ms total)
T0500 752:652 JLINK_GetSpeed()  returns 0xFA0 (0000ms, 7507ms total)
T0500 752:652 JLINK_ReadMemU32(0xE000E004, 0x0001 Items, ...) -- CPU_ReadMem(4 bytes @ 0xE000E004) - Data: 02 00 00 00  returns 1 (0001ms, 7508ms total)
T0500 752:653 JLINK_ReadMemU32(0xE000E004, 0x0001 Items, ...) -- CPU_ReadMem(4 bytes @ 0xE000E004) - Data: 02 00 00 00  returns 1 (0001ms, 7509ms total)
T0500 752:654 JLINK_WriteMemEx(0xE0001000, 0x001C Bytes, ..., Flags = 0x02000004) - Data: 01 00 00 00 00 00 00 00 00 00 00 00 00 00 00 00 ... -- CPU_WriteMem(28 bytes @ 0xE0001000)  returns 0x1C (0003ms, 7512ms total)
T0500 752:657 JLINK_ReadReg(R15 (PC))  returns 0x0800019C (0000ms, 7512ms total)
T0500 752:657 JLINK_ReadReg(XPSR)  returns 0x01000000 (0000ms, 7512ms total)
T0500 752:669 JLINK_ReadMemEx(0xE0001004, 0x0004 Bytes, ..., Flags = 0x02000000) - Data: 00 00 00 00  returns 0x04 (0000ms, 7512ms total)
T0500 752:747 JLINK_SetResetType(JLINKARM_CM3_RESET_TYPE_NORMAL)  returns JLINKARM_CM3_RESET_TYPE_NORMAL (0000ms, 7512ms total)
T0500 752:747 JLINK_Reset() -- CPU_WriteMem(4 bytes @ 0xE000EDF0) -- CPU_WriteMem(4 bytes @ 0xE000EDFC)Reset: Halt core after reset via DEMCR.VC_CORERESET. >0x35 TIF>Reset: Reset device via AIRCR.SYSRESETREQ. -- CPU_WriteMem(4 bytes @ 0xE000ED0C) >0x0D TIF> >0x28 TIF> -- CPU_ReadMem(4 bytes @ 0xE000EDF0) -- CPU_ReadMem(4 bytes @ 0xE000EDF0) -- CPU_WriteMem(4 bytes @ 0xE000EDF0) -- CPU_WriteMem(4 bytes @ 0xE000EDFC) -- CPU_ReadMem(4 bytes @ 0xE000EDF0) -- CPU_WriteMem(4 bytes @ 0xE0002000)
 -- CPU_ReadMem(4 bytes @ 0xE000EDFC) -- CPU_ReadMem(4 bytes @ 0xE0001000) (0070ms, 7582ms total)
T0500 752:817 JLINK_ReadReg(R15 (PC))  returns 0x0800019C (0000ms, 7582ms total)
T0500 752:817 JLINK_ReadReg(XPSR)  returns 0x01000000 (0000ms, 7582ms total)
T0500 752:819 JLINK_ReadMemEx(0x0800019C, 0x003C Bytes, ..., Flags = 0x02000000) -- CPU_ReadMem(128 bytes @ 0x08000180) -- Updating C cache (128 bytes @ 0x08000180) -- Read from C cache (60 bytes @ 0x0800019C) - Data: 06 48 80 47 06 48 00 47 FE E7 FE E7 FE E7 FE E7 ...  returns 0x3C (0002ms, 7584ms total)
T0500 752:821 JLINK_ReadMemEx(0x0800019C, 0x0002 Bytes, ..., Flags = 0x02000000) -- Read from C cache (2 bytes @ 0x0800019C) - Data: 06 48  returns 0x02 (0000ms, 7584ms total)
T0500 752:821 JLINK_ReadMemEx(0x0800019E, 0x0002 Bytes, ..., Flags = 0x02000000) -- Read from C cache (2 bytes @ 0x0800019E) - Data: 80 47  returns 0x02 (0001ms, 7585ms total)
T0500 752:822 JLINK_ReadMemEx(0x0800019E, 0x0002 Bytes, ..., Flags = 0x02000000) -- Read from C cache (2 bytes @ 0x0800019E) - Data: 80 47  returns 0x02 (0000ms, 7585ms total)
T0500 752:822 JLINK_ReadMemEx(0x080001A0, 0x003C Bytes, ..., Flags = 0x02000000) -- Read from C cache (60 bytes @ 0x080001A0) - Data: 06 48 00 47 FE E7 FE E7 FE E7 FE E7 FE E7 FE E7 ...  returns 0x3C (0000ms, 7585ms total)
T0500 752:822 JLINK_ReadMemEx(0x080001A0, 0x0002 Bytes, ..., Flags = 0x02000000) -- Read from C cache (2 bytes @ 0x080001A0) - Data: 06 48  returns 0x02 (0000ms, 7585ms total)
T0500 754:864 JLINK_ReadReg(R0)  returns 0x00000000 (0000ms, 7585ms total)
T0500 754:864 JLINK_ReadReg(R1)  returns 0x00000000 (0000ms, 7585ms total)
T0500 754:864 JLINK_ReadReg(R2)  returns 0x00000000 (0000ms, 7585ms total)
T0500 754:864 JLINK_ReadReg(R3)  returns 0x00000000 (0000ms, 7585ms total)
T0500 754:864 JLINK_ReadReg(R4)  returns 0x00000000 (0000ms, 7585ms total)
T0500 754:864 JLINK_ReadReg(R5)  returns 0x00000000 (0000ms, 7585ms total)
T0500 754:864 JLINK_ReadReg(R6)  returns 0x00000000 (0000ms, 7585ms total)
T0500 754:864 JLINK_ReadReg(R7)  returns 0x00000000 (0000ms, 7585ms total)
T0500 754:864 JLINK_ReadReg(R8)  returns 0x00000000 (0000ms, 7585ms total)
T0500 754:864 JLINK_ReadReg(R9)  returns 0x00000000 (0000ms, 7585ms total)
T0500 754:864 JLINK_ReadReg(R10)  returns 0x00000000 (0000ms, 7585ms total)
T0500 754:864 JLINK_ReadReg(R11)  returns 0x00000000 (0000ms, 7585ms total)
T0500 754:864 JLINK_ReadReg(R12)  returns 0x00000000 (0000ms, 7585ms total)
T0500 754:864 JLINK_ReadReg(R13 (SP))  returns 0x20000990 (0000ms, 7585ms total)
T0500 754:864 JLINK_ReadReg(R14)  returns 0xFFFFFFFF (0000ms, 7585ms total)
T0500 754:864 JLINK_ReadReg(R15 (PC))  returns 0x0800019C (0001ms, 7586ms total)
T0500 754:865 JLINK_ReadReg(XPSR)  returns 0x01000000 (0000ms, 7586ms total)
T0500 754:865 JLINK_ReadReg(MSP)  returns 0x20000990 (0000ms, 7586ms total)
T0500 754:865 JLINK_ReadReg(PSP)  returns 0x00000000 (0000ms, 7586ms total)
T0500 754:865 JLINK_ReadReg(CFBP)  returns 0x00000000 (0000ms, 7586ms total)
T0500 754:865 JLINK_ReadReg(FPSCR)  returns 0x00000000 (0003ms, 7589ms total)
T0500 754:868 JLINK_ReadReg(FPS0)  returns 0x00000000 (0000ms, 7589ms total)
T0500 754:868 JLINK_ReadReg(FPS1)  returns 0x00000000 (0000ms, 7589ms total)
T0500 754:868 JLINK_ReadReg(FPS2)  returns 0x00000000 (0000ms, 7589ms total)
T0500 754:868 JLINK_ReadReg(FPS3)  returns 0x00000000 (0000ms, 7589ms total)
T0500 754:868 JLINK_ReadReg(FPS4)  returns 0x00000000 (0000ms, 7589ms total)
T0500 754:868 JLINK_ReadReg(FPS5)  returns 0x00000000 (0000ms, 7589ms total)
T0500 754:868 JLINK_ReadReg(FPS6)  returns 0x00000000 (0000ms, 7589ms total)
T0500 754:868 JLINK_ReadReg(FPS7)  returns 0x00000000 (0000ms, 7589ms total)
T0500 754:868 JLINK_ReadReg(FPS8)  returns 0x00000000 (0000ms, 7589ms total)
T0500 754:868 JLINK_ReadReg(FPS9)  returns 0x00000000 (0000ms, 7589ms total)
T0500 754:868 JLINK_ReadReg(FPS10)  returns 0x00000000 (0000ms, 7589ms total)
T0500 754:868 JLINK_ReadReg(FPS11)  returns 0x00000000 (0000ms, 7589ms total)
T0500 754:868 JLINK_ReadReg(FPS12)  returns 0x00000000 (0000ms, 7589ms total)
T0500 754:868 JLINK_ReadReg(FPS13)  returns 0x00000000 (0000ms, 7589ms total)
T0500 754:868 JLINK_ReadReg(FPS14)  returns 0x00000000 (0000ms, 7589ms total)
T0500 754:868 JLINK_ReadReg(FPS15)  returns 0x00000000 (0001ms, 7590ms total)
T0500 754:869 JLINK_ReadReg(FPS16)  returns 0x00000000 (0000ms, 7590ms total)
T0500 754:869 JLINK_ReadReg(FPS17)  returns 0x00000000 (0000ms, 7590ms total)
T0500 754:869 JLINK_ReadReg(FPS18)  returns 0x00000000 (0000ms, 7590ms total)
T0500 754:869 JLINK_ReadReg(FPS19)  returns 0x00000000 (0000ms, 7590ms total)
T0500 754:869 JLINK_ReadReg(FPS20)  returns 0x00000000 (0000ms, 7590ms total)
T0500 754:869 JLINK_ReadReg(FPS21)  returns 0x00000000 (0000ms, 7590ms total)
T0500 754:869 JLINK_ReadReg(FPS22)  returns 0x00000000 (0000ms, 7590ms total)
T0500 754:869 JLINK_ReadReg(FPS23)  returns 0x00000000 (0000ms, 7590ms total)
T0500 754:869 JLINK_ReadReg(FPS24)  returns 0x00000000 (0000ms, 7590ms total)
T0500 754:869 JLINK_ReadReg(FPS25)  returns 0x00000000 (0000ms, 7590ms total)
T0500 754:869 JLINK_ReadReg(FPS26)  returns 0x00000000 (0000ms, 7590ms total)
T0500 754:869 JLINK_ReadReg(FPS27)  returns 0x00000000 (0000ms, 7590ms total)
T0500 754:869 JLINK_ReadReg(FPS28)  returns 0x00000000 (0000ms, 7590ms total)
T0500 754:869 JLINK_ReadReg(FPS29)  returns 0x00000000 (0000ms, 7590ms total)
T0500 754:869 JLINK_ReadReg(FPS30)  returns 0x00000000 (0000ms, 7590ms total)
T0500 754:869 JLINK_ReadReg(FPS31)  returns 0x00000000 (0000ms, 7590ms total)
T3088 754:972 JLINK_ReadMemEx(0x0800019C, 0x0002 Bytes, ..., Flags = 0x02000000) -- Read from C cache (2 bytes @ 0x0800019C) - Data: 06 48  returns 0x02 (0000ms, 7590ms total)
T3088 754:972 JLINK_SetBPEx(Addr = 0x08007D4C, Type = 0xFFFFFFF2)  returns 0x00000001 (0000ms, 7590ms total)
T3088 754:972 JLINK_SetBPEx(Addr = 0x0800032E, Type = 0xFFFFFFF2)  returns 0x00000002 (0000ms, 7590ms total)
T3088 754:972 JLINK_Go() -- CPU_WriteMem(4 bytes @ 0xE0002000) -- CPU_WriteMem(4 bytes @ 0xE0002000) -- CPU_ReadMem(4 bytes @ 0xE0001000) -- CPU_WriteMem(4 bytes @ 0xE0002008) -- CPU_WriteMem(4 bytes @ 0xE000200C) -- CPU_WriteMem(4 bytes @ 0xE0002010) -- CPU_WriteMem(4 bytes @ 0xE0002014) -- CPU_WriteMem(4 bytes @ 0xE0002018) -- CPU_WriteMem(4 bytes @ 0xE000201C) -- CPU_WriteMem(4 bytes @ 0xE0001004) (0004ms, 7594ms total)
T3088 755:077 JLINK_IsHalted()  returns TRUE (0002ms, 7596ms total)
T3088 755:079 JLINK_Halt()  returns 0x00 (0000ms, 7594ms total)
T3088 755:079 JLINK_IsHalted()  returns TRUE (0000ms, 7594ms total)
T3088 755:079 JLINK_IsHalted()  returns TRUE (0000ms, 7594ms total)
T3088 755:079 JLINK_IsHalted()  returns TRUE (0000ms, 7594ms total)
T3088 755:079 JLINK_ReadReg(R15 (PC))  returns 0x08007D4C (0000ms, 7594ms total)
T3088 755:079 JLINK_ReadReg(XPSR)  returns 0x61000000 (0000ms, 7594ms total)
T3088 755:079 JLINK_ClrBPEx(BPHandle = 0x00000001)  returns 0x00 (0000ms, 7594ms total)
T3088 755:079 JLINK_ClrBPEx(BPHandle = 0x00000002)  returns 0x00 (0000ms, 7594ms total)
T3088 755:079 JLINK_ReadMemU32(0xE000ED30, 0x0001 Items, ...) -- CPU_ReadMem(4 bytes @ 0xE000ED30) - Data: 02 00 00 00  returns 1 (0001ms, 7595ms total)
T3088 755:080 JLINK_ReadMemU32(0xE0001028, 0x0001 Items, ...) -- CPU_ReadMem(4 bytes @ 0xE0001028) - Data: 00 00 00 00  returns 1 (0000ms, 7595ms total)
T3088 755:080 JLINK_ReadMemU32(0xE0001038, 0x0001 Items, ...) -- CPU_ReadMem(4 bytes @ 0xE0001038) - Data: 00 02 00 00  returns 1 (0001ms, 7596ms total)
T3088 755:081 JLINK_ReadMemU32(0xE0001048, 0x0001 Items, ...) -- CPU_ReadMem(4 bytes @ 0xE0001048) - Data: 00 00 00 00  returns 1 (0000ms, 7596ms total)
T3088 755:081 JLINK_ReadMemU32(0xE0001058, 0x0001 Items, ...) -- CPU_ReadMem(4 bytes @ 0xE0001058) - Data: 00 00 00 00  returns 1 (0000ms, 7596ms total)
T3088 755:082 JLINK_ReadReg(R0)  returns 0x08007D4D (0000ms, 7596ms total)
T3088 755:082 JLINK_ReadReg(R1)  returns 0x20000990 (0000ms, 7596ms total)
T3088 755:082 JLINK_ReadReg(R2)  returns 0x00000000 (0000ms, 7596ms total)
T3088 755:082 JLINK_ReadReg(R3)  returns 0x08007E4B (0000ms, 7596ms total)
T3088 755:082 JLINK_ReadReg(R4)  returns 0x08007EB0 (0000ms, 7596ms total)
T3088 755:082 JLINK_ReadReg(R5)  returns 0x08007EB0 (0000ms, 7596ms total)
T3088 755:082 JLINK_ReadReg(R6)  returns 0x00000000 (0000ms, 7596ms total)
T3088 755:082 JLINK_ReadReg(R7)  returns 0x00000000 (0000ms, 7596ms total)
T3088 755:082 JLINK_ReadReg(R8)  returns 0x00000000 (0000ms, 7596ms total)
T3088 755:082 JLINK_ReadReg(R9)  returns 0x00000000 (0000ms, 7596ms total)
T3088 755:082 JLINK_ReadReg(R10)  returns 0x00000000 (0000ms, 7596ms total)
T3088 755:082 JLINK_ReadReg(R11)  returns 0x00000000 (0000ms, 7596ms total)
T3088 755:082 JLINK_ReadReg(R12)  returns 0x00000000 (0000ms, 7596ms total)
T3088 755:082 JLINK_ReadReg(R13 (SP))  returns 0x20000990 (0000ms, 7596ms total)
T3088 755:082 JLINK_ReadReg(R14)  returns 0x080001DD (0000ms, 7596ms total)
T3088 755:082 JLINK_ReadReg(R15 (PC))  returns 0x08007D4C (0000ms, 7596ms total)
T3088 755:082 JLINK_ReadReg(XPSR)  returns 0x61000000 (0000ms, 7596ms total)
T3088 755:082 JLINK_ReadReg(MSP)  returns 0x20000990 (0000ms, 7596ms total)
T3088 755:082 JLINK_ReadReg(PSP)  returns 0x00000000 (0000ms, 7596ms total)
T3088 755:082 JLINK_ReadReg(CFBP)  returns 0x00000000 (0000ms, 7596ms total)
T3088 755:082 JLINK_ReadReg(FPSCR)  returns 0x00000000 (0003ms, 7599ms total)
T3088 755:085 JLINK_ReadReg(FPS0)  returns 0x00000000 (0000ms, 7599ms total)
T3088 755:085 JLINK_ReadReg(FPS1)  returns 0x00000000 (0000ms, 7599ms total)
T3088 755:085 JLINK_ReadReg(FPS2)  returns 0x00000000 (0000ms, 7599ms total)
T3088 755:085 JLINK_ReadReg(FPS3)  returns 0x00000000 (0001ms, 7600ms total)
T3088 755:086 JLINK_ReadReg(FPS4)  returns 0x00000000 (0000ms, 7600ms total)
T3088 755:086 JLINK_ReadReg(FPS5)  returns 0x00000000 (0000ms, 7600ms total)
T3088 755:086 JLINK_ReadReg(FPS6)  returns 0x00000000 (0000ms, 7600ms total)
T3088 755:086 JLINK_ReadReg(FPS7)  returns 0x00000000 (0000ms, 7600ms total)
T3088 755:086 JLINK_ReadReg(FPS8)  returns 0x00000000 (0000ms, 7600ms total)
T3088 755:086 JLINK_ReadReg(FPS9)  returns 0x00000000 (0000ms, 7600ms total)
T3088 755:086 JLINK_ReadReg(FPS10)  returns 0x00000000 (0000ms, 7600ms total)
T3088 755:086 JLINK_ReadReg(FPS11)  returns 0x00000000 (0000ms, 7600ms total)
T3088 755:086 JLINK_ReadReg(FPS12)  returns 0x00000000 (0000ms, 7600ms total)
T3088 755:086 JLINK_ReadReg(FPS13)  returns 0x00000000 (0000ms, 7600ms total)
T3088 755:086 JLINK_ReadReg(FPS14)  returns 0x00000000 (0000ms, 7600ms total)
T3088 755:086 JLINK_ReadReg(FPS15)  returns 0x00000000 (0000ms, 7600ms total)
T3088 755:086 JLINK_ReadReg(FPS16)  returns 0x00000000 (0000ms, 7600ms total)
T3088 755:086 JLINK_ReadReg(FPS17)  returns 0x00000000 (0000ms, 7600ms total)
T3088 755:086 JLINK_ReadReg(FPS18)  returns 0x00000000 (0000ms, 7600ms total)
T3088 755:086 JLINK_ReadReg(FPS19)  returns 0x00000000 (0000ms, 7600ms total)
T3088 755:086 JLINK_ReadReg(FPS20)  returns 0x00000000 (0000ms, 7600ms total)
T3088 755:086 JLINK_ReadReg(FPS21)  returns 0x00000000 (0000ms, 7600ms total)
T3088 755:086 JLINK_ReadReg(FPS22)  returns 0x00000000 (0000ms, 7600ms total)
T3088 755:086 JLINK_ReadReg(FPS23)  returns 0x00000000 (0000ms, 7600ms total)
T3088 755:086 JLINK_ReadReg(FPS24)  returns 0x00000000 (0000ms, 7600ms total)
T3088 755:086 JLINK_ReadReg(FPS25)  returns 0x00000000 (0000ms, 7600ms total)
T3088 755:086 JLINK_ReadReg(FPS26)  returns 0x00000000 (0000ms, 7600ms total)
T3088 755:086 JLINK_ReadReg(FPS27)  returns 0x00000000 (0000ms, 7600ms total)
T3088 755:086 JLINK_ReadReg(FPS28)  returns 0x00000000 (0001ms, 7601ms total)
T3088 755:087 JLINK_ReadReg(FPS29)  returns 0x00000000 (0000ms, 7601ms total)
T3088 755:087 JLINK_ReadReg(FPS30)  returns 0x00000000 (0000ms, 7601ms total)
T3088 755:087 JLINK_ReadReg(FPS31)  returns 0x00000000 (0000ms, 7601ms total)
T0500 755:087 JLINK_ReadMemEx(0x20000998, 0x0004 Bytes, ..., Flags = 0x02000000) -- CPU_ReadMem(64 bytes @ 0x20000980) -- Updating C cache (64 bytes @ 0x20000980) -- Read from C cache (4 bytes @ 0x20000998) - Data: 00 00 00 00  returns 0x04 (0001ms, 7602ms total)
T0500 755:088 JLINK_ReadMemEx(0x20000994, 0x0004 Bytes, ..., Flags = 0x02000000) -- Read from C cache (4 bytes @ 0x20000994) - Data: 00 00 00 00  returns 0x04 (0000ms, 7602ms total)
T0500 755:090 JLINK_ReadMemEx(0x20000998, 0x0004 Bytes, ..., Flags = 0x02000000) -- Read from C cache (4 bytes @ 0x20000998) - Data: 00 00 00 00  returns 0x04 (0000ms, 7602ms total)
T0500 755:090 JLINK_ReadMemEx(0x20000994, 0x0004 Bytes, ..., Flags = 0x02000000) -- Read from C cache (4 bytes @ 0x20000994) - Data: 00 00 00 00  returns 0x04 (0000ms, 7602ms total)
T3088 756:413 JLINK_ReadMemEx(0x08007D4C, 0x0002 Bytes, ..., Flags = 0x02000000) -- CPU_ReadMem(64 bytes @ 0x08007D40) -- Updating C cache (64 bytes @ 0x08007D40) -- Read from C cache (2 bytes @ 0x08007D4C) - Data: 84 B0  returns 0x02 (0001ms, 7603ms total)
T3088 756:414 JLINK_SetBPEx(Addr = 0x0800032E, Type = 0xFFFFFFF2)  returns 0x00000003 (0000ms, 7603ms total)
T3088 756:414 JLINK_Go() -- CPU_WriteMem(4 bytes @ 0xE0002000) -- CPU_ReadMem(4 bytes @ 0xE0001000) -- CPU_WriteMem(4 bytes @ 0xE0002008) -- CPU_WriteMem(4 bytes @ 0xE000200C) (0002ms, 7605ms total)
T3088 756:517 JLINK_IsHalted()  returns FALSE (0001ms, 7606ms total)
T3088 756:618 JLINK_IsHalted()  returns FALSE (0000ms, 7605ms total)
T3088 756:719 JLINK_IsHalted()  returns FALSE (0000ms, 7605ms total)
T3088 756:821 JLINK_IsHalted()  returns FALSE (0000ms, 7605ms total)
T3088 756:922 JLINK_IsHalted()  returns FALSE (0000ms, 7605ms total)
T3088 757:024 JLINK_ReadMemU32(0xE0001004, 0x0001 Items, ...) -- CPU_ReadMem(4 bytes @ 0xE0001004) - Data: 61 F2 13 06  returns 1 (0000ms, 7605ms total)
T3088 757:028 JLINK_IsHalted()  returns FALSE (0001ms, 7606ms total)
T3088 757:130 JLINK_IsHalted()  returns FALSE (0001ms, 7606ms total)
T3088 757:232 JLINK_IsHalted()  returns FALSE (0000ms, 7605ms total)
T3088 757:333 JLINK_IsHalted()  returns FALSE (0001ms, 7606ms total)
T3088 757:435 JLINK_IsHalted()  returns TRUE (0003ms, 7608ms total)
T3088 757:438 JLINK_Halt()  returns 0x00 (0000ms, 7605ms total)
T3088 757:438 JLINK_IsHalted()  returns TRUE (0000ms, 7605ms total)
T3088 757:438 JLINK_IsHalted()  returns TRUE (0000ms, 7605ms total)
T3088 757:438 JLINK_IsHalted()  returns TRUE (0000ms, 7605ms total)
T3088 757:438 JLINK_ReadReg(R15 (PC))  returns 0x0800032E (0000ms, 7605ms total)
T3088 757:439 JLINK_ReadReg(XPSR)  returns 0x21000000 (0000ms, 7606ms total)
T3088 757:439 JLINK_ClrBPEx(BPHandle = 0x00000003)  returns 0x00 (0000ms, 7606ms total)
T3088 757:439 JLINK_ReadMemU32(0xE000ED30, 0x0001 Items, ...) -- CPU_ReadMem(4 bytes @ 0xE000ED30) - Data: 02 00 00 00  returns 1 (0001ms, 7607ms total)
T3088 757:440 JLINK_ReadMemU32(0xE0001028, 0x0001 Items, ...) -- CPU_ReadMem(4 bytes @ 0xE0001028) - Data: 00 00 00 00  returns 1 (0001ms, 7608ms total)
T3088 757:441 JLINK_ReadMemU32(0xE0001038, 0x0001 Items, ...) -- CPU_ReadMem(4 bytes @ 0xE0001038) - Data: 00 02 00 00  returns 1 (0000ms, 7608ms total)
T3088 757:441 JLINK_ReadMemU32(0xE0001048, 0x0001 Items, ...) -- CPU_ReadMem(4 bytes @ 0xE0001048) - Data: 00 00 00 00  returns 1 (0001ms, 7609ms total)
T3088 757:442 JLINK_ReadMemU32(0xE0001058, 0x0001 Items, ...) -- CPU_ReadMem(4 bytes @ 0xE0001058) - Data: 00 00 00 00  returns 1 (0001ms, 7610ms total)
T3088 757:444 JLINK_ReadReg(R0)  returns 0x20000958 (0000ms, 7610ms total)
T3088 757:444 JLINK_ReadReg(R1)  returns 0x40020800 (0000ms, 7610ms total)
T3088 757:444 JLINK_ReadReg(R2)  returns 0x00000001 (0000ms, 7610ms total)
T3088 757:444 JLINK_ReadReg(R3)  returns 0x000003E9 (0000ms, 7610ms total)
T3088 757:444 JLINK_ReadReg(R4)  returns 0x20000970 (0001ms, 7611ms total)
T3088 757:445 JLINK_ReadReg(R5)  returns 0x08007EB0 (0000ms, 7611ms total)
T3088 757:445 JLINK_ReadReg(R6)  returns 0x00000000 (0000ms, 7611ms total)
T3088 757:445 JLINK_ReadReg(R7)  returns 0x00000000 (0000ms, 7611ms total)
T3088 757:445 JLINK_ReadReg(R8)  returns 0x00000000 (0000ms, 7611ms total)
T3088 757:445 JLINK_ReadReg(R9)  returns 0x00000000 (0000ms, 7611ms total)
T3088 757:445 JLINK_ReadReg(R10)  returns 0x00000000 (0000ms, 7611ms total)
T3088 757:445 JLINK_ReadReg(R11)  returns 0x00000000 (0000ms, 7611ms total)
T3088 757:445 JLINK_ReadReg(R12)  returns 0x00000000 (0001ms, 7612ms total)
T3088 757:446 JLINK_ReadReg(R13 (SP))  returns 0x20000950 (0000ms, 7612ms total)
T3088 757:446 JLINK_ReadReg(R14)  returns 0x08004D8B (0000ms, 7612ms total)
T3088 757:446 JLINK_ReadReg(R15 (PC))  returns 0x0800032E (0000ms, 7612ms total)
T3088 757:446 JLINK_ReadReg(XPSR)  returns 0x21000000 (0000ms, 7612ms total)
T3088 757:446 JLINK_ReadReg(MSP)  returns 0x20000950 (0000ms, 7612ms total)
T3088 757:446 JLINK_ReadReg(PSP)  returns 0x00000000 (0000ms, 7612ms total)
T3088 757:446 JLINK_ReadReg(CFBP)  returns 0x04000000 (0000ms, 7612ms total)
T3088 757:446 JLINK_ReadReg(FPSCR)  returns 0x00000010 (0004ms, 7616ms total)
T3088 757:450 JLINK_ReadReg(FPS0)  returns 0x00000555 (0000ms, 7616ms total)
T3088 757:450 JLINK_ReadReg(FPS1)  returns 0x00000000 (0000ms, 7616ms total)
T3088 757:450 JLINK_ReadReg(FPS2)  returns 0x45800000 (0001ms, 7617ms total)
T3088 757:451 JLINK_ReadReg(FPS3)  returns 0x00000000 (0000ms, 7617ms total)
T3088 757:451 JLINK_ReadReg(FPS4)  returns 0x00000000 (0000ms, 7617ms total)
T3088 757:451 JLINK_ReadReg(FPS5)  returns 0x00000000 (0000ms, 7617ms total)
T3088 757:451 JLINK_ReadReg(FPS6)  returns 0x00000000 (0000ms, 7617ms total)
T3088 757:451 JLINK_ReadReg(FPS7)  returns 0x00000000 (0000ms, 7617ms total)
T3088 757:451 JLINK_ReadReg(FPS8)  returns 0x00000000 (0000ms, 7617ms total)
T3088 757:451 JLINK_ReadReg(FPS9)  returns 0x00000000 (0000ms, 7617ms total)
T3088 757:451 JLINK_ReadReg(FPS10)  returns 0x00000000 (0000ms, 7617ms total)
T3088 757:451 JLINK_ReadReg(FPS11)  returns 0x00000000 (0000ms, 7617ms total)
T3088 757:451 JLINK_ReadReg(FPS12)  returns 0x00000000 (0001ms, 7618ms total)
T3088 757:452 JLINK_ReadReg(FPS13)  returns 0x00000000 (0000ms, 7618ms total)
T3088 757:452 JLINK_ReadReg(FPS14)  returns 0x00000000 (0000ms, 7618ms total)
T3088 757:452 JLINK_ReadReg(FPS15)  returns 0x00000000 (0000ms, 7618ms total)
T3088 757:452 JLINK_ReadReg(FPS16)  returns 0x00000000 (0000ms, 7618ms total)
T3088 757:452 JLINK_ReadReg(FPS17)  returns 0x00000000 (0000ms, 7618ms total)
T3088 757:452 JLINK_ReadReg(FPS18)  returns 0x00000000 (0000ms, 7618ms total)
T3088 757:452 JLINK_ReadReg(FPS19)  returns 0x00000000 (0000ms, 7618ms total)
T3088 757:452 JLINK_ReadReg(FPS20)  returns 0x00000000 (0000ms, 7618ms total)
T3088 757:452 JLINK_ReadReg(FPS21)  returns 0x00000000 (0000ms, 7618ms total)
T3088 757:453 JLINK_ReadReg(FPS22)  returns 0x00000000 (0000ms, 7618ms total)
T3088 757:453 JLINK_ReadReg(FPS23)  returns 0x00000000 (0000ms, 7618ms total)
T3088 757:453 JLINK_ReadReg(FPS24)  returns 0x00000000 (0000ms, 7618ms total)
T3088 757:453 JLINK_ReadReg(FPS25)  returns 0x00000000 (0000ms, 7618ms total)
T3088 757:453 JLINK_ReadReg(FPS26)  returns 0x00000000 (0000ms, 7618ms total)
T3088 757:453 JLINK_ReadReg(FPS27)  returns 0x00000000 (0000ms, 7618ms total)
T3088 757:453 JLINK_ReadReg(FPS28)  returns 0x00000000 (0000ms, 7618ms total)
T3088 757:453 JLINK_ReadReg(FPS29)  returns 0x00000000 (0000ms, 7618ms total)
T3088 757:453 JLINK_ReadReg(FPS30)  returns 0x00000000 (0000ms, 7618ms total)
T3088 757:453 JLINK_ReadReg(FPS31)  returns 0x00000000 (0000ms, 7618ms total)
T0500 757:454 JLINK_ReadMemEx(0x20000964, 0x0004 Bytes, ..., Flags = 0x02000000) -- CPU_ReadMem(64 bytes @ 0x20000940) -- Updating C cache (64 bytes @ 0x20000940) -- Read from C cache (4 bytes @ 0x20000964) - Data: 53 09 00 08  returns 0x04 (0001ms, 7619ms total)
T0500 757:456 JLINK_ReadMemEx(0x20000960, 0x0004 Bytes, ..., Flags = 0x02000000) -- Read from C cache (4 bytes @ 0x20000960) - Data: 00 00 00 00  returns 0x04 (0001ms, 7621ms total)
T0500 757:457 JLINK_ReadMemEx(0x20000964, 0x0004 Bytes, ..., Flags = 0x02000000) -- Read from C cache (4 bytes @ 0x20000964) - Data: 53 09 00 08  returns 0x04 (0000ms, 7621ms total)
T0500 757:457 JLINK_ReadMemEx(0x2000097C, 0x0004 Bytes, ..., Flags = 0x02000000) -- Read from C cache (4 bytes @ 0x2000097C) - Data: FF 7D 00 08  returns 0x04 (0000ms, 7621ms total)
T0500 757:457 JLINK_ReadMemEx(0x20000978, 0x0004 Bytes, ..., Flags = 0x02000000) -- Read from C cache (4 bytes @ 0x20000978) - Data: B0 7E 00 08  returns 0x04 (0001ms, 7622ms total)
T0500 757:458 JLINK_ReadMemEx(0x2000097C, 0x0004 Bytes, ..., Flags = 0x02000000) -- Read from C cache (4 bytes @ 0x2000097C) - Data: FF 7D 00 08  returns 0x04 (0000ms, 7622ms total)
T0500 757:458 JLINK_ReadMemEx(0x2000095C, 0x0004 Bytes, ..., Flags = 0x02000000) -- Read from C cache (4 bytes @ 0x2000095C) - Data: C8 02 00 20  returns 0x04 (0000ms, 7622ms total)
T0500 757:458 JLINK_ReadMemEx(0x2000095B, 0x0001 Bytes, ..., Flags = 0x02000000) -- Read from C cache (1 bytes @ 0x2000095B) - Data: 01  returns 0x01 (0000ms, 7622ms total)
T0500 757:458 JLINK_ReadMemEx(0x20000958, 0x0002 Bytes, ..., Flags = 0x02000000) -- Read from C cache (2 bytes @ 0x20000958) - Data: 00 90  returns 0x02 (0001ms, 7623ms total)
T0500 757:459 JLINK_ReadMemEx(0x20000956, 0x0002 Bytes, ..., Flags = 0x02000000) -- Read from C cache (2 bytes @ 0x20000956) - Data: 00 00  returns 0x02 (0000ms, 7623ms total)
T0500 757:459 JLINK_ReadMemEx(0x20000950, 0x0004 Bytes, ..., Flags = 0x02000000) -- Read from C cache (4 bytes @ 0x20000950) - Data: 55 05 55 45  returns 0x04 (0000ms, 7623ms total)
T0500 757:461 JLINK_ReadMemEx(0x2000095C, 0x0004 Bytes, ..., Flags = 0x02000000) -- Read from C cache (4 bytes @ 0x2000095C) - Data: C8 02 00 20  returns 0x04 (0001ms, 7624ms total)
T0500 757:462 JLINK_ReadMemEx(0x2000095B, 0x0001 Bytes, ..., Flags = 0x02000000) -- Read from C cache (1 bytes @ 0x2000095B) - Data: 01  returns 0x01 (0000ms, 7624ms total)
T0500 757:462 JLINK_ReadMemEx(0x20000958, 0x0002 Bytes, ..., Flags = 0x02000000) -- Read from C cache (2 bytes @ 0x20000958) - Data: 00 90  returns 0x02 (0000ms, 7624ms total)
T0500 757:462 JLINK_ReadMemEx(0x20000956, 0x0002 Bytes, ..., Flags = 0x02000000) -- Read from C cache (2 bytes @ 0x20000956) - Data: 00 00  returns 0x02 (0000ms, 7624ms total)
T0500 757:462 JLINK_ReadMemEx(0x20000950, 0x0004 Bytes, ..., Flags = 0x02000000) -- Read from C cache (4 bytes @ 0x20000950) - Data: 55 05 55 45  returns 0x04 (0000ms, 7624ms total)
T0500 757:462 JLINK_ReadMemEx(0x20000988, 0x0004 Bytes, ..., Flags = 0x02000000) -- CPU_ReadMem(64 bytes @ 0x20000980) -- Updating C cache (64 bytes @ 0x20000980) -- Read from C cache (4 bytes @ 0x20000988) - Data: E9 03 00 00  returns 0x04 (0002ms, 7626ms total)
T0500 757:464 JLINK_ReadMemEx(0x20000984, 0x0004 Bytes, ..., Flags = 0x02000000) -- Read from C cache (4 bytes @ 0x20000984) - Data: 00 00 00 00  returns 0x04 (0000ms, 7626ms total)
T0500 757:464 JLINK_ReadMemEx(0x20000980, 0x0004 Bytes, ..., Flags = 0x02000000) -- Read from C cache (4 bytes @ 0x20000980) - Data: 00 00 00 00  returns 0x04 (0000ms, 7626ms total)
T0500 757:478 JLINK_ReadMemEx(0x0800032E, 0x0002 Bytes, ..., Flags = 0x02000000) -- CPU_ReadMem(64 bytes @ 0x08000300) -- Updating C cache (64 bytes @ 0x08000300) -- Read from C cache (2 bytes @ 0x0800032E) - Data: 03 F0  returns 0x02 (0001ms, 7627ms total)
T0500 757:479 JLINK_ReadMemEx(0x08000330, 0x003C Bytes, ..., Flags = 0x02000000) -- CPU_ReadMem(64 bytes @ 0x08000340) -- Updating C cache (64 bytes @ 0x08000340) -- Read from C cache (60 bytes @ 0x08000330) - Data: 7D FA 0D F1 06 00 03 F0 65 F9 03 98 41 68 01 20 ...  returns 0x3C (0001ms, 7628ms total)
T0500 757:480 JLINK_ReadMemEx(0x08000330, 0x0002 Bytes, ..., Flags = 0x02000000) -- Read from C cache (2 bytes @ 0x08000330) - Data: 7D FA  returns 0x02 (0001ms, 7629ms total)
T0500 757:481 JLINK_ReadMemEx(0x08000332, 0x0002 Bytes, ..., Flags = 0x02000000) -- Read from C cache (2 bytes @ 0x08000332) - Data: 0D F1  returns 0x02 (0000ms, 7629ms total)
T0500 757:481 JLINK_ReadMemEx(0x08000334, 0x003C Bytes, ..., Flags = 0x02000000) -- Read from C cache (60 bytes @ 0x08000334) - Data: 06 00 03 F0 65 F9 03 98 41 68 01 20 88 47 BD F8 ...  returns 0x3C (0000ms, 7629ms total)
T0500 757:481 JLINK_ReadMemEx(0x08000334, 0x0002 Bytes, ..., Flags = 0x02000000) -- Read from C cache (2 bytes @ 0x08000334) - Data: 06 00  returns 0x02 (0000ms, 7629ms total)
T0500 757:481 JLINK_ReadMemEx(0x08000336, 0x0002 Bytes, ..., Flags = 0x02000000) -- Read from C cache (2 bytes @ 0x08000336) - Data: 03 F0  returns 0x02 (0000ms, 7629ms total)
T0500 757:481 JLINK_ReadMemEx(0x08000338, 0x003C Bytes, ..., Flags = 0x02000000) -- Read from C cache (60 bytes @ 0x08000338) - Data: 65 F9 03 98 41 68 01 20 88 47 BD F8 06 00 6F F3 ...  returns 0x3C (0000ms, 7629ms total)
T0500 757:481 JLINK_ReadMemEx(0x08000338, 0x0002 Bytes, ..., Flags = 0x02000000) -- Read from C cache (2 bytes @ 0x08000338) - Data: 65 F9  returns 0x02 (0000ms, 7629ms total)
T3088 761:366 JLINK_ReadMemEx(0x0800032E, 0x0002 Bytes, ..., Flags = 0x02000000) -- Read from C cache (2 bytes @ 0x0800032E) - Data: 03 F0  returns 0x02 (0000ms, 7629ms total)
T3088 761:366 JLINK_Step() -- Read from C cache (2 bytes @ 0x0800032E) -- CPU_ReadMem(4 bytes @ 0xE000ED18) -- CPU_WriteMem(4 bytes @ 0xE000ED18) -- CPU_ReadMem(4 bytes @ 0xE000ED18) -- CPU_WriteMem(4 bytes @ 0xE000ED18) -- Read from C cache (2 bytes @ 0x08000330) -- Simulated  returns 0x00 (0005ms, 7634ms total)
T3088 761:371 JLINK_ReadReg(R15 (PC))  returns 0x0800382C (0000ms, 7634ms total)
T3088 761:371 JLINK_ReadReg(XPSR)  returns 0x21000000 (0000ms, 7634ms total)
T3088 761:371 JLINK_SetBPEx(Addr = 0x08000332, Type = 0xFFFFFFF2)  returns 0x00000004 (0000ms, 7634ms total)
T3088 761:371 JLINK_SetBPEx(Addr = 0x0800032E, Type = 0xFFFFFFF2)  returns 0x00000005 (0000ms, 7634ms total)
T3088 761:371 JLINK_Go() -- CPU_WriteMem(4 bytes @ 0xE0002000) -- CPU_WriteMem(4 bytes @ 0xE0002000) -- CPU_ReadMem(4 bytes @ 0xE0001000) -- CPU_WriteMem(4 bytes @ 0xE0002008) -- CPU_WriteMem(4 bytes @ 0xE000200C) -- CPU_WriteMem(4 bytes @ 0xE0001004) (0007ms, 7641ms total)
T3088 761:480 JLINK_IsHalted()  returns TRUE (0003ms, 7645ms total)
T3088 761:483 JLINK_Halt()  returns 0x00 (0000ms, 7642ms total)
T3088 761:483 JLINK_IsHalted()  returns TRUE (0000ms, 7642ms total)
T3088 761:483 JLINK_IsHalted()  returns TRUE (0000ms, 7642ms total)
T3088 761:483 JLINK_IsHalted()  returns TRUE (0000ms, 7642ms total)
T3088 761:483 JLINK_ReadReg(R15 (PC))  returns 0x08000332 (0001ms, 7643ms total)
T3088 761:484 JLINK_ReadReg(XPSR)  returns 0x61000000 (0000ms, 7643ms total)
T3088 761:484 JLINK_ClrBPEx(BPHandle = 0x00000004)  returns 0x00 (0000ms, 7643ms total)
T3088 761:484 JLINK_ClrBPEx(BPHandle = 0x00000005)  returns 0x00 (0000ms, 7643ms total)
T3088 761:484 JLINK_ReadMemU32(0xE000ED30, 0x0001 Items, ...) -- CPU_ReadMem(4 bytes @ 0xE000ED30) - Data: 02 00 00 00  returns 1 (0001ms, 7644ms total)
T3088 761:485 JLINK_ReadMemU32(0xE0001028, 0x0001 Items, ...) -- CPU_ReadMem(4 bytes @ 0xE0001028) - Data: 00 00 00 00  returns 1 (0001ms, 7645ms total)
T3088 761:486 JLINK_ReadMemU32(0xE0001038, 0x0001 Items, ...) -- CPU_ReadMem(4 bytes @ 0xE0001038) - Data: 00 02 00 00  returns 1 (0001ms, 7646ms total)
T3088 761:487 JLINK_ReadMemU32(0xE0001048, 0x0001 Items, ...) -- CPU_ReadMem(4 bytes @ 0xE0001048) - Data: 00 00 00 00  returns 1 (0001ms, 7647ms total)
T3088 761:488 JLINK_ReadMemU32(0xE0001058, 0x0001 Items, ...) -- CPU_ReadMem(4 bytes @ 0xE0001058) - Data: 00 00 00 00  returns 1 (0001ms, 7648ms total)
T3088 761:489 JLINK_ReadMemEx(0x08000330, 0x003C Bytes, ..., Flags = 0x02000000) -- CPU_ReadMem(128 bytes @ 0x08000300) -- Updating C cache (128 bytes @ 0x08000300) -- Read from C cache (60 bytes @ 0x08000330) - Data: 7D FA 0D F1 06 00 03 F0 65 F9 03 98 41 68 01 20 ...  returns 0x3C (0002ms, 7650ms total)
T3088 761:491 JLINK_ReadMemEx(0x08000330, 0x0002 Bytes, ..., Flags = 0x02000000) -- Read from C cache (2 bytes @ 0x08000330) - Data: 7D FA  returns 0x02 (0000ms, 7650ms total)
T3088 761:491 JLINK_ReadMemEx(0x08000332, 0x0002 Bytes, ..., Flags = 0x02000000) -- Read from C cache (2 bytes @ 0x08000332) - Data: 0D F1  returns 0x02 (0000ms, 7650ms total)
T3088 761:492 JLINK_Step() -- Read from C cache (2 bytes @ 0x08000332) -- CPU_ReadMem(4 bytes @ 0xE0001004) -- Read from C cache (2 bytes @ 0x08000334) -- Not simulated -- CPU_WriteMem(4 bytes @ 0xE0002008) -- CPU_WriteMem(4 bytes @ 0xE000200C)  returns 0x00 (0005ms, 7655ms total)
T3088 761:497 JLINK_ReadReg(R15 (PC))  returns 0x08000336 (0000ms, 7655ms total)
T3088 761:497 JLINK_ReadReg(XPSR)  returns 0x61000000 (0000ms, 7655ms total)
T3088 761:498 JLINK_ReadReg(R0)  returns 0x20000956 (0000ms, 7655ms total)
T3088 761:498 JLINK_ReadReg(R1)  returns 0x00000000 (0000ms, 7655ms total)
T3088 761:498 JLINK_ReadReg(R2)  returns 0x00000005 (0000ms, 7655ms total)
T3088 761:498 JLINK_ReadReg(R3)  returns 0x000003EF (0000ms, 7655ms total)
T3088 761:498 JLINK_ReadReg(R4)  returns 0x20000970 (0000ms, 7655ms total)
T3088 761:498 JLINK_ReadReg(R5)  returns 0x08007EB0 (0000ms, 7655ms total)
T3088 761:498 JLINK_ReadReg(R6)  returns 0x00000000 (0000ms, 7655ms total)
T3088 761:498 JLINK_ReadReg(R7)  returns 0x00000000 (0000ms, 7655ms total)
T3088 761:498 JLINK_ReadReg(R8)  returns 0x00000000 (0001ms, 7656ms total)
T3088 761:499 JLINK_ReadReg(R9)  returns 0x00000000 (0000ms, 7656ms total)
T3088 761:499 JLINK_ReadReg(R10)  returns 0x00000000 (0000ms, 7656ms total)
T3088 761:499 JLINK_ReadReg(R11)  returns 0x00000000 (0000ms, 7656ms total)
T3088 761:499 JLINK_ReadReg(R12)  returns 0x00000000 (0000ms, 7656ms total)
T3088 761:499 JLINK_ReadReg(R13 (SP))  returns 0x20000950 (0000ms, 7656ms total)
T3088 761:499 JLINK_ReadReg(R14)  returns 0x08006D7F (0000ms, 7656ms total)
T3088 761:499 JLINK_ReadReg(R15 (PC))  returns 0x08000336 (0000ms, 7656ms total)
T3088 761:499 JLINK_ReadReg(XPSR)  returns 0x61000000 (0000ms, 7656ms total)
T3088 761:499 JLINK_ReadReg(MSP)  returns 0x20000950 (0001ms, 7657ms total)
T3088 761:500 JLINK_ReadReg(PSP)  returns 0x00000000 (0000ms, 7657ms total)
T3088 761:500 JLINK_ReadReg(CFBP)  returns 0x04000000 (0000ms, 7657ms total)
T3088 761:500 JLINK_ReadReg(FPSCR)  returns 0x00000010 (0005ms, 7662ms total)
T3088 761:505 JLINK_ReadReg(FPS0)  returns 0x00000555 (0000ms, 7662ms total)
T3088 761:505 JLINK_ReadReg(FPS1)  returns 0x00000000 (0000ms, 7662ms total)
T3088 761:505 JLINK_ReadReg(FPS2)  returns 0x45800000 (0000ms, 7662ms total)
T3088 761:505 JLINK_ReadReg(FPS3)  returns 0x00000000 (0000ms, 7662ms total)
T3088 761:505 JLINK_ReadReg(FPS4)  returns 0x00000000 (0001ms, 7663ms total)
T3088 761:506 JLINK_ReadReg(FPS5)  returns 0x00000000 (0000ms, 7663ms total)
T3088 761:506 JLINK_ReadReg(FPS6)  returns 0x00000000 (0000ms, 7663ms total)
T3088 761:506 JLINK_ReadReg(FPS7)  returns 0x00000000 (0000ms, 7663ms total)
T3088 761:506 JLINK_ReadReg(FPS8)  returns 0x00000000 (0000ms, 7663ms total)
T3088 761:506 JLINK_ReadReg(FPS9)  returns 0x00000000 (0000ms, 7663ms total)
T3088 761:506 JLINK_ReadReg(FPS10)  returns 0x00000000 (0000ms, 7663ms total)
T3088 761:506 JLINK_ReadReg(FPS11)  returns 0x00000000 (0000ms, 7663ms total)
T3088 761:506 JLINK_ReadReg(FPS12)  returns 0x00000000 (0000ms, 7663ms total)
T3088 761:506 JLINK_ReadReg(FPS13)  returns 0x00000000 (0001ms, 7664ms total)
T3088 761:507 JLINK_ReadReg(FPS14)  returns 0x00000000 (0000ms, 7664ms total)
T3088 761:507 JLINK_ReadReg(FPS15)  returns 0x00000000 (0000ms, 7664ms total)
T3088 761:507 JLINK_ReadReg(FPS16)  returns 0x00000000 (0000ms, 7664ms total)
T3088 761:507 JLINK_ReadReg(FPS17)  returns 0x00000000 (0000ms, 7664ms total)
T3088 761:507 JLINK_ReadReg(FPS18)  returns 0x00000000 (0000ms, 7664ms total)
T3088 761:507 JLINK_ReadReg(FPS19)  returns 0x00000000 (0000ms, 7664ms total)
T3088 761:507 JLINK_ReadReg(FPS20)  returns 0x00000000 (0000ms, 7664ms total)
T3088 761:507 JLINK_ReadReg(FPS21)  returns 0x00000000 (0000ms, 7664ms total)
T3088 761:508 JLINK_ReadReg(FPS22)  returns 0x00000000 (0000ms, 7664ms total)
T3088 761:508 JLINK_ReadReg(FPS23)  returns 0x00000000 (0000ms, 7664ms total)
T3088 761:508 JLINK_ReadReg(FPS24)  returns 0x00000000 (0000ms, 7664ms total)
T3088 761:508 JLINK_ReadReg(FPS25)  returns 0x00000000 (0000ms, 7664ms total)
T3088 761:508 JLINK_ReadReg(FPS26)  returns 0x00000000 (0000ms, 7664ms total)
T3088 761:508 JLINK_ReadReg(FPS27)  returns 0x00000000 (0000ms, 7664ms total)
T3088 761:508 JLINK_ReadReg(FPS28)  returns 0x00000000 (0000ms, 7664ms total)
T3088 761:508 JLINK_ReadReg(FPS29)  returns 0x00000000 (0001ms, 7665ms total)
T3088 761:509 JLINK_ReadReg(FPS30)  returns 0x00000000 (0000ms, 7665ms total)
T3088 761:509 JLINK_ReadReg(FPS31)  returns 0x00000000 (0000ms, 7665ms total)
T0500 761:510 JLINK_ReadMemEx(0x20000964, 0x0004 Bytes, ..., Flags = 0x02000000) -- CPU_ReadMem(64 bytes @ 0x20000940) -- Updating C cache (64 bytes @ 0x20000940) -- Read from C cache (4 bytes @ 0x20000964) - Data: 53 09 00 08  returns 0x04 (0001ms, 7666ms total)
T0500 761:511 JLINK_ReadMemEx(0x20000960, 0x0004 Bytes, ..., Flags = 0x02000000) -- Read from C cache (4 bytes @ 0x20000960) - Data: 00 00 00 00  returns 0x04 (0000ms, 7666ms total)
T0500 761:511 JLINK_ReadMemEx(0x20000964, 0x0004 Bytes, ..., Flags = 0x02000000) -- Read from C cache (4 bytes @ 0x20000964) - Data: 53 09 00 08  returns 0x04 (0000ms, 7666ms total)
T0500 761:511 JLINK_ReadMemEx(0x2000097C, 0x0004 Bytes, ..., Flags = 0x02000000) -- Read from C cache (4 bytes @ 0x2000097C) - Data: FF 7D 00 08  returns 0x04 (0000ms, 7666ms total)
T0500 761:511 JLINK_ReadMemEx(0x20000978, 0x0004 Bytes, ..., Flags = 0x02000000) -- Read from C cache (4 bytes @ 0x20000978) - Data: B0 7E 00 08  returns 0x04 (0000ms, 7666ms total)
T0500 761:511 JLINK_ReadMemEx(0x2000097C, 0x0004 Bytes, ..., Flags = 0x02000000) -- Read from C cache (4 bytes @ 0x2000097C) - Data: FF 7D 00 08  returns 0x04 (0001ms, 7667ms total)
T0500 761:512 JLINK_ReadMemEx(0x2000095C, 0x0004 Bytes, ..., Flags = 0x02000000) -- Read from C cache (4 bytes @ 0x2000095C) - Data: C8 02 00 20  returns 0x04 (0000ms, 7667ms total)
T0500 761:512 JLINK_ReadMemEx(0x2000095B, 0x0001 Bytes, ..., Flags = 0x02000000) -- Read from C cache (1 bytes @ 0x2000095B) - Data: 01  returns 0x01 (0000ms, 7667ms total)
T0500 761:512 JLINK_ReadMemEx(0x20000958, 0x0002 Bytes, ..., Flags = 0x02000000) -- Read from C cache (2 bytes @ 0x20000958) - Data: 00 90  returns 0x02 (0000ms, 7667ms total)
T0500 761:512 JLINK_ReadMemEx(0x20000956, 0x0002 Bytes, ..., Flags = 0x02000000) -- Read from C cache (2 bytes @ 0x20000956) - Data: 00 00  returns 0x02 (0000ms, 7667ms total)
T0500 761:512 JLINK_ReadMemEx(0x20000950, 0x0004 Bytes, ..., Flags = 0x02000000) -- Read from C cache (4 bytes @ 0x20000950) - Data: 55 05 55 45  returns 0x04 (0000ms, 7667ms total)
T0500 761:512 JLINK_ReadMemEx(0x20000988, 0x0004 Bytes, ..., Flags = 0x02000000) -- CPU_ReadMem(64 bytes @ 0x20000980) -- Updating C cache (64 bytes @ 0x20000980) -- Read from C cache (4 bytes @ 0x20000988) - Data: E9 03 00 00  returns 0x04 (0001ms, 7668ms total)
T0500 761:513 JLINK_ReadMemEx(0x20000984, 0x0004 Bytes, ..., Flags = 0x02000000) -- Read from C cache (4 bytes @ 0x20000984) - Data: 00 00 00 00  returns 0x04 (0000ms, 7668ms total)
T0500 761:513 JLINK_ReadMemEx(0x20000980, 0x0004 Bytes, ..., Flags = 0x02000000) -- Read from C cache (4 bytes @ 0x20000980) - Data: 00 00 00 00  returns 0x04 (0001ms, 7669ms total)
T0500 761:533 JLINK_ReadMemEx(0x08000336, 0x0002 Bytes, ..., Flags = 0x02000000) -- CPU_ReadMem(64 bytes @ 0x08000300) -- Updating C cache (64 bytes @ 0x08000300) -- Read from C cache (2 bytes @ 0x08000336) - Data: 03 F0  returns 0x02 (0002ms, 7671ms total)
T0500 761:535 JLINK_ReadMemEx(0x08000338, 0x003C Bytes, ..., Flags = 0x02000000) -- CPU_ReadMem(64 bytes @ 0x08000340) -- Updating C cache (64 bytes @ 0x08000340) -- Read from C cache (60 bytes @ 0x08000338) - Data: 65 F9 03 98 41 68 01 20 88 47 BD F8 06 00 6F F3 ...  returns 0x3C (0001ms, 7672ms total)
T0500 761:536 JLINK_ReadMemEx(0x08000338, 0x0002 Bytes, ..., Flags = 0x02000000) -- Read from C cache (2 bytes @ 0x08000338) - Data: 65 F9  returns 0x02 (0000ms, 7672ms total)
T0500 761:536 JLINK_ReadMemEx(0x0800033A, 0x0002 Bytes, ..., Flags = 0x02000000) -- Read from C cache (2 bytes @ 0x0800033A) - Data: 03 98  returns 0x02 (0000ms, 7672ms total)
T0500 761:536 JLINK_ReadMemEx(0x0800033C, 0x003C Bytes, ..., Flags = 0x02000000) -- Read from C cache (60 bytes @ 0x0800033C) - Data: 41 68 01 20 88 47 BD F8 06 00 6F F3 1F 30 00 EE ...  returns 0x3C (0000ms, 7672ms total)
T0500 761:536 JLINK_ReadMemEx(0x0800033C, 0x0002 Bytes, ..., Flags = 0x02000000) -- Read from C cache (2 bytes @ 0x0800033C) - Data: 41 68  returns 0x02 (0001ms, 7673ms total)
T0500 763:018 JLINK_ReadMemEx(0x20000958, 0x0002 Bytes, ..., Flags = 0x02000000) -- Read from C cache (2 bytes @ 0x20000958) - Data: 00 90  returns 0x02 (0000ms, 7673ms total)
T0500 763:474 JLINK_ReadMemEx(0x20000956, 0x0002 Bytes, ..., Flags = 0x02000000) -- Read from C cache (2 bytes @ 0x20000956) - Data: 00 00  returns 0x02 (0000ms, 7673ms total)
T3088 763:598 JLINK_ReadMemEx(0x08000336, 0x0002 Bytes, ..., Flags = 0x02000000) -- Read from C cache (2 bytes @ 0x08000336) - Data: 03 F0  returns 0x02 (0000ms, 7673ms total)
T3088 763:598 JLINK_ReadMemEx(0x08000338, 0x003C Bytes, ..., Flags = 0x02000000) -- Read from C cache (60 bytes @ 0x08000338) - Data: 65 F9 03 98 41 68 01 20 88 47 BD F8 06 00 6F F3 ...  returns 0x3C (0001ms, 7674ms total)
T3088 763:599 JLINK_ReadMemEx(0x08000338, 0x0002 Bytes, ..., Flags = 0x02000000) -- Read from C cache (2 bytes @ 0x08000338) - Data: 65 F9  returns 0x02 (0000ms, 7674ms total)
T3088 763:599 JLINK_ReadMemEx(0x08000336, 0x0002 Bytes, ..., Flags = 0x02000000) -- Read from C cache (2 bytes @ 0x08000336) - Data: 03 F0  returns 0x02 (0000ms, 7674ms total)
T3088 763:599 JLINK_SetBPEx(Addr = 0x0800033A, Type = 0xFFFFFFF2)  returns 0x00000006 (0001ms, 7675ms total)
T3088 763:600 JLINK_SetBPEx(Addr = 0x0800032E, Type = 0xFFFFFFF2)  returns 0x00000007 (0000ms, 7675ms total)
T3088 763:600 JLINK_Go() -- CPU_WriteMem(4 bytes @ 0xE0002000) -- CPU_WriteMem(4 bytes @ 0xE0002000) -- CPU_ReadMem(4 bytes @ 0xE0001000) -- CPU_WriteMem(4 bytes @ 0xE0002008) -- CPU_WriteMem(4 bytes @ 0xE000200C) (0005ms, 7680ms total)
T3088 763:706 JLINK_IsHalted()  returns TRUE (0002ms, 7682ms total)
T3088 763:708 JLINK_Halt()  returns 0x00 (0001ms, 7681ms total)
T3088 763:709 JLINK_IsHalted()  returns TRUE (0000ms, 7681ms total)
T3088 763:709 JLINK_IsHalted()  returns TRUE (0000ms, 7681ms total)
T3088 763:709 JLINK_IsHalted()  returns TRUE (0000ms, 7681ms total)
T3088 763:709 JLINK_ReadReg(R15 (PC))  returns 0x0800033A (0000ms, 7681ms total)
T3088 763:709 JLINK_ReadReg(XPSR)  returns 0x61000000 (0000ms, 7681ms total)
T3088 763:709 JLINK_ClrBPEx(BPHandle = 0x00000006)  returns 0x00 (0000ms, 7681ms total)
T3088 763:709 JLINK_ClrBPEx(BPHandle = 0x00000007)  returns 0x00 (0000ms, 7681ms total)
T3088 763:709 JLINK_ReadMemU32(0xE000ED30, 0x0001 Items, ...) -- CPU_ReadMem(4 bytes @ 0xE000ED30) - Data: 02 00 00 00  returns 1 (0001ms, 7682ms total)
T3088 763:710 JLINK_ReadMemU32(0xE0001028, 0x0001 Items, ...) -- CPU_ReadMem(4 bytes @ 0xE0001028) - Data: 00 00 00 00  returns 1 (0001ms, 7683ms total)
T3088 763:711 JLINK_ReadMemU32(0xE0001038, 0x0001 Items, ...) -- CPU_ReadMem(4 bytes @ 0xE0001038) - Data: 00 02 00 00  returns 1 (0000ms, 7683ms total)
T3088 763:711 JLINK_ReadMemU32(0xE0001048, 0x0001 Items, ...) -- CPU_ReadMem(4 bytes @ 0xE0001048) - Data: 00 00 00 00  returns 1 (0000ms, 7683ms total)
